Open On-Chip Debugger 0.11.0-rc1+dev-01537-g3b5ba4d1d (2021-02-11-16:44)
Licensed under GNU GPL v2
For bug reports, read
	http://openocd.org/doc/doxygen/bugs.html
User : 13 3 options.c:63 configuration_output_handler(): debug_level: 3
User : 14 3 options.c:63 configuration_output_handler(): 
Debug: 15 3 options.c:244 add_default_dirs(): bindir=/usr/local/bin
Debug: 16 3 options.c:245 add_default_dirs(): pkgdatadir=/usr/local/share/openocd
Debug: 17 3 options.c:246 add_default_dirs(): exepath=/usr/local/bin
Debug: 18 3 options.c:247 add_default_dirs(): bin2data=../share/openocd
Debug: 19 3 configuration.c:42 add_script_search_dir(): adding /home/merl/.config/openocd
Debug: 20 3 configuration.c:42 add_script_search_dir(): adding /home/merl/.openocd
Debug: 21 3 configuration.c:42 add_script_search_dir(): adding /usr/local/bin/../share/openocd/site
Debug: 22 3 configuration.c:42 add_script_search_dir(): adding /usr/local/bin/../share/openocd/scripts
Debug: 23 3 configuration.c:97 find_file(): found board/azadi.cfg
Debug: 24 3 command.c:146 script_debug(): command - echo DEPRECATED! use 'adapter driver' not 'interface'
User : 26 3 command.c:769 jim_echo(): DEPRECATED! use 'adapter driver' not 'interface'
Debug: 27 3 command.c:146 script_debug(): command - adapter driver remote_bitbang
Info : 29 4 transport.c:117 allow_transports(): only one transport option; autoselect 'jtag'
Debug: 30 4 command.c:146 script_debug(): command - remote_bitbang_host localhost
Debug: 32 4 command.c:146 script_debug(): command - remote_bitbang_port 44853
Debug: 34 4 command.c:146 script_debug(): command - jtag newtap riscv tap -irlen 5 -expected-id 0x04f5484d
Debug: 35 4 tcl.c:571 jim_newtap_cmd(): Creating New Tap, Chip: riscv, Tap: tap, Dotted: riscv.tap, 4 params
Debug: 36 4 tcl.c:596 jim_newtap_cmd(): Processing option: -irlen
Debug: 37 4 tcl.c:596 jim_newtap_cmd(): Processing option: -expected-id
Debug: 38 4 core.c:1484 jtag_tap_init(): Created Tap: riscv.tap @ abs position 0, irlen 5, capture: 0x1 mask: 0x3
Debug: 39 4 command.c:146 script_debug(): command - target create riscv.tap.0 riscv -chain-position riscv.tap
Debug: 40 4 target.c:2154 target_free_all_working_areas_restore(): freeing all working areas
Debug: 41 4 riscv.c:428 riscv_create_target(): riscv_create_target()
Debug: 42 4 command.c:146 script_debug(): command - gdb_report_data_abort enable
Debug: 44 4 command.c:146 script_debug(): command - gdb_report_register_access_error enable
Debug: 46 4 command.c:146 script_debug(): command - gdb_breakpoint_override hard
User : 48 4 gdb_server.c:3785 handle_gdb_breakpoint_override_command(): force hard breakpoints
Debug: 49 4 command.c:146 script_debug(): command - init
Debug: 51 4 command.c:146 script_debug(): command - target init
Debug: 53 4 command.c:146 script_debug(): command - target names
Debug: 54 4 command.c:146 script_debug(): command - riscv.tap.0 cget -event gdb-flash-erase-start
Debug: 55 4 command.c:146 script_debug(): command - riscv.tap.0 configure -event gdb-flash-erase-start reset init
Debug: 56 4 command.c:146 script_debug(): command - riscv.tap.0 cget -event gdb-flash-write-end
Debug: 57 4 command.c:146 script_debug(): command - riscv.tap.0 configure -event gdb-flash-write-end reset halt
Debug: 58 4 command.c:146 script_debug(): command - riscv.tap.0 cget -event gdb-attach
Debug: 59 4 command.c:146 script_debug(): command - riscv.tap.0 configure -event gdb-attach halt 1000
Debug: 60 4 target.c:1615 handle_target_init_command(): Initializing targets...
Debug: 61 4 riscv.c:439 riscv_init_target(): riscv_init_target()
Debug: 62 4 semihosting_common.c:97 semihosting_common_init():  
Info : 63 4 remote_bitbang.c:282 remote_bitbang_init(): Initializing remote_bitbang driver
Info : 64 4 remote_bitbang.c:211 remote_bitbang_init_tcp(): Connecting to localhost:44853
Info : 65 5 remote_bitbang.c:298 remote_bitbang_init(): remote_bitbang driver initialized
Info : 66 5 core.c:1536 adapter_init(): This adapter doesn't support configurable speed
Debug: 67 5 openocd.c:143 handle_init_command(): Debug Adapter init complete
Debug: 68 5 command.c:146 script_debug(): command - transport init
Debug: 70 5 transport.c:229 handle_transport_init(): handle_transport_init
Debug: 71 5 core.c:830 jtag_add_reset(): SRST line released
Debug: 72 5 core.c:855 jtag_add_reset(): TRST line released
Debug: 73 5 core.c:327 jtag_call_event_callbacks(): jtag event: TAP reset
Debug: 74 5 command.c:146 script_debug(): command - jtag arp_init
Debug: 75 5 core.c:1578 jtag_init_inner(): Init JTAG chain
Debug: 76 5 core.c:327 jtag_call_event_callbacks(): jtag event: TAP reset
Debug: 77 5 core.c:1243 jtag_examine_chain(): DR scan interrogation for IDCODE/BYPASS
Debug: 78 5 core.c:327 jtag_call_event_callbacks(): jtag event: TAP reset
Info : 79 104 core.c:1142 jtag_examine_chain_display(): JTAG tap: riscv.tap tap/device found: 0x04f5484d (mfg: 0x426 (Google Inc), part: 0x4f54, ver: 0x0)
Debug: 80 105 core.c:1374 jtag_validate_ircapture(): IR capture validation scan
Debug: 81 107 core.c:1431 jtag_validate_ircapture(): riscv.tap: IR capture 0x05
Debug: 82 107 command.c:146 script_debug(): command - dap init
Debug: 84 107 arm_dap.c:106 dap_init_all(): Initializing all DAPs ...
Debug: 85 107 openocd.c:160 handle_init_command(): Examining targets...
Debug: 86 107 target.c:1800 target_call_event_callbacks(): target event 19 (examine-start) for core riscv.tap.0
Debug: 87 107 riscv.c:1061 riscv_examine(): riscv_examine()
Debug: 88 114 riscv.c:401 dtmcontrol_scan(): DTMCONTROL: 0x0 -> 0x1071
Debug: 89 114 riscv.c:1071 riscv_examine(): dtmcontrol=0x1071
Debug: 90 114 riscv.c:1073 riscv_examine():   version=0x1
Debug: 91 114 riscv-013.c:2280 init_target(): init
Debug: 92 122 riscv-013.c:456 dtmcontrol_scan(): DTMCS: 0x0 -> 0x1071
Debug: 93 122 riscv-013.c:1572 examine(): dtmcontrol=0x1071
Debug: 94 122 riscv-013.c:1573 examine():   dmireset=0
Debug: 95 122 riscv-013.c:1574 examine():   idle=1
Debug: 96 122 riscv-013.c:1575 examine():   dmistat=0
Debug: 97 122 riscv-013.c:1576 examine():   abits=7
Debug: 98 122 riscv-013.c:1577 examine():   version=1
Debug: 99 122 riscv-013.c:262 get_dm(): [0] Allocating new DM
Debug: 100 132 riscv-013.c:402 scan(): 41b w 00000000 @10 -> + 00000000 @00; 0i
Debug: 101 139 riscv-013.c:402 scan(): 41b - 00000000 @10 -> + 00000000 @10; 0i
Debug: 102 147 riscv-013.c:402 scan(): 41b w 00000001 @10 -> + 00000000 @10; 0i
Debug: 103 147 riscv-013.c:412 scan():  dmactive -> 
Debug: 104 154 riscv-013.c:402 scan(): 41b - 00000000 @10 -> + 00000001 @10; 0i
Debug: 105 154 riscv-013.c:412 scan():  ->  dmactive
Debug: 106 162 riscv-013.c:402 scan(): 41b w 07ffffc1 @10 -> + 00000000 @10; 0i
Debug: 107 162 riscv-013.c:412 scan():  hasel hartselhi=1023 hartsello=1023 dmactive -> 
Debug: 108 169 riscv-013.c:402 scan(): 41b - 00000000 @10 -> + 07ffffc1 @10; 0i
Debug: 109 169 riscv-013.c:412 scan():  ->  hasel hartselhi=1023 hartsello=1023 dmactive
Debug: 110 177 riscv-013.c:402 scan(): 41b r 00000000 @10 -> + 00000000 @10; 0i
Debug: 111 184 riscv-013.c:402 scan(): 41b - 00000000 @10 -> b 00000000 @10; 0i
Debug: 112 184 riscv-013.c:465 increase_dmi_busy_delay(): dtmcs_idle=1, dmi_busy_delay=1, ac_busy_delay=0
Debug: 113 190 riscv-013.c:456 dtmcontrol_scan(): DTMCS: 0x10000 -> 0x1c71
Debug: 114 198 riscv-013.c:402 scan(): 41b - 00000000 @10 -> + 03ffffc1 @10; 1i
Debug: 115 198 riscv-013.c:412 scan():  ->  hartselhi=1023 hartsello=1023 dmactive
Debug: 116 206 riscv-013.c:402 scan(): 41b r 00000000 @11 -> + 00000000 @10; 1i
Debug: 117 212 riscv-013.c:402 scan(): 41b - 00000000 @11 -> b 00000000 @11; 1i
Debug: 118 212 riscv-013.c:465 increase_dmi_busy_delay(): dtmcs_idle=1, dmi_busy_delay=2, ac_busy_delay=0
Debug: 119 515 riscv-013.c:456 dtmcontrol_scan(): DTMCS: 0x10000 -> 0x1071
Debug: 120 524 riscv-013.c:402 scan(): 41b - 00000000 @11 -> + 0000cc82 @11; 2i
Debug: 121 524 riscv-013.c:412 scan():  ->  allnonexistent anynonexistent allrunning anyrunning authenticated version=2
Debug: 122 524 riscv-013.c:1622 examine(): dmstatus:  0x0000cc82
Debug: 123 524 riscv-013.c:1638 examine(): hartsellen=20
Debug: 124 532 riscv-013.c:402 scan(): 41b r 00000000 @12 -> + 00000000 @11; 2i
Debug: 125 539 riscv-013.c:402 scan(): 41b - 00000000 @12 -> b 00000000 @12; 2i
Debug: 126 539 riscv-013.c:465 increase_dmi_busy_delay(): dtmcs_idle=1, dmi_busy_delay=3, ac_busy_delay=0
Debug: 127 546 riscv-013.c:456 dtmcontrol_scan(): DTMCS: 0x10000 -> 0x1071
Debug: 128 553 riscv-013.c:402 scan(): 41b - 00000000 @12 -> + 00000000 @12; 3i
Debug: 129 562 riscv-013.c:402 scan(): 41b r 00000000 @38 -> + 00000000 @12; 3i
Debug: 130 571 riscv-013.c:402 scan(): 41b - 00000000 @38 -> b 00000000 @38; 3i
Debug: 131 571 riscv-013.c:465 increase_dmi_busy_delay(): dtmcs_idle=1, dmi_busy_delay=4, ac_busy_delay=0
Debug: 132 578 riscv-013.c:456 dtmcontrol_scan(): DTMCS: 0x10000 -> 0x1071
Debug: 133 587 riscv-013.c:402 scan(): 41b - 00000000 @38 -> + 20040404 @38; 4i
Debug: 134 587 riscv-013.c:412 scan():  ->  sbversion=1 sbaccess=2 sbasize=32 sbaccess32
Debug: 135 596 riscv-013.c:402 scan(): 41b r 00000000 @16 -> + 00000000 @38; 4i
Debug: 136 603 riscv-013.c:402 scan(): 41b - 00000000 @16 -> + 08000002 @16; 4i
Debug: 137 603 riscv-013.c:412 scan():  ->  progbufsize=8 datacount=2
Info : 138 603 riscv-013.c:1669 examine(): datacount=2 progbufsize=8
Debug: 139 612 riscv-013.c:402 scan(): 41b r 00000000 @10 -> + 00000000 @16; 4i
Debug: 140 620 riscv-013.c:402 scan(): 41b - 00000000 @10 -> + 03ffffc1 @10; 4i
Debug: 141 620 riscv-013.c:412 scan():  ->  hartselhi=1023 hartsello=1023 dmactive
Debug: 142 629 riscv-013.c:402 scan(): 41b w 00000001 @10 -> + 00000000 @10; 4i
Debug: 143 629 riscv-013.c:412 scan():  dmactive -> 
Debug: 144 638 riscv-013.c:402 scan(): 41b - 00000000 @10 -> + 00000001 @10; 4i
Debug: 145 638 riscv-013.c:412 scan():  ->  dmactive
Debug: 146 646 riscv-013.c:402 scan(): 41b r 00000000 @11 -> + 00000000 @10; 4i
Debug: 147 654 riscv-013.c:402 scan(): 41b - 00000000 @11 -> + 000c0c82 @11; 4i
Debug: 148 654 riscv-013.c:412 scan():  ->  allhavereset anyhavereset allrunning anyrunning authenticated version=2
Debug: 149 663 riscv-013.c:402 scan(): 41b w 10000001 @10 -> + 00000000 @11; 4i
Debug: 150 663 riscv-013.c:412 scan():  dmactive ackhavereset -> 
Debug: 151 670 riscv-013.c:402 scan(): 41b - 00000000 @10 -> + 10000001 @10; 4i
Debug: 152 670 riscv-013.c:412 scan():  ->  dmactive ackhavereset
Debug: 153 679 riscv-013.c:402 scan(): 41b r 00000000 @10 -> + 00000000 @10; 4i
Debug: 154 687 riscv-013.c:402 scan(): 41b - 00000000 @10 -> + 00000001 @10; 4i
Debug: 155 687 riscv-013.c:412 scan():  ->  dmactive
Debug: 156 695 riscv-013.c:402 scan(): 41b w 00010001 @10 -> + 00000000 @10; 4i
Debug: 157 695 riscv-013.c:412 scan():  hartsello=1 dmactive -> 
Debug: 158 703 riscv-013.c:402 scan(): 41b - 00000000 @10 -> + 00010001 @10; 4i
Debug: 159 703 riscv-013.c:412 scan():  ->  hartsello=1 dmactive
Debug: 160 711 riscv-013.c:402 scan(): 41b r 00000000 @11 -> + 00000000 @10; 4i
Debug: 161 718 riscv-013.c:402 scan(): 41b - 00000000 @11 -> + 0000cc82 @11; 4i
Debug: 162 718 riscv-013.c:412 scan():  ->  allnonexistent anynonexistent allrunning anyrunning authenticated version=2
Debug: 163 718 riscv-013.c:1707 examine(): Detected 1 harts.
Debug: 164 727 riscv-013.c:402 scan(): 41b r 00000000 @10 -> + 00000000 @11; 4i
Debug: 165 734 riscv-013.c:402 scan(): 41b - 00000000 @10 -> + 00010001 @10; 4i
Debug: 166 734 riscv-013.c:412 scan():  ->  hartsello=1 dmactive
Debug: 167 743 riscv-013.c:402 scan(): 41b w 00000001 @10 -> + 00000000 @10; 4i
Debug: 168 743 riscv-013.c:412 scan():  dmactive -> 
Debug: 169 750 riscv-013.c:402 scan(): 41b - 00000000 @10 -> + 00000001 @10; 4i
Debug: 170 750 riscv-013.c:412 scan():  ->  dmactive
Debug: 171 758 riscv-013.c:402 scan(): 41b r 00000000 @11 -> + 00000000 @10; 4i
Debug: 172 766 riscv-013.c:402 scan(): 41b - 00000000 @11 -> + 00000c82 @11; 4i
Debug: 173 766 riscv-013.c:412 scan():  ->  allrunning anyrunning authenticated version=2
Debug: 174 766 riscv-013.c:4216 riscv013_halt_go(): halting hart 0
Debug: 175 774 riscv-013.c:402 scan(): 41b w 80000001 @10 -> + 00000000 @11; 4i
Debug: 176 774 riscv-013.c:412 scan(): haltreq dmactive -> 
Debug: 177 781 riscv-013.c:402 scan(): 41b - 00000000 @10 -> + 80000001 @10; 4i
Debug: 178 781 riscv-013.c:412 scan():  -> haltreq dmactive
Debug: 179 789 riscv-013.c:402 scan(): 41b r 00000000 @11 -> + 00000000 @10; 4i
Debug: 180 796 riscv-013.c:402 scan(): 41b - 00000000 @11 -> + 00000382 @11; 4i
Debug: 181 796 riscv-013.c:412 scan():  ->  allhalted anyhalted authenticated version=2
Debug: 182 805 riscv-013.c:402 scan(): 41b r 00000000 @11 -> + 00000000 @11; 4i
Debug: 183 812 riscv-013.c:402 scan(): 41b - 00000000 @11 -> + 00000382 @11; 4i
Debug: 184 812 riscv-013.c:412 scan():  ->  allhalted anyhalted authenticated version=2
Debug: 185 820 riscv-013.c:402 scan(): 41b w 00000001 @10 -> + 00000000 @11; 4i
Debug: 186 820 riscv-013.c:412 scan():  dmactive -> 
Debug: 187 828 riscv-013.c:402 scan(): 41b - 00000000 @10 -> + 00000001 @10; 4i
Debug: 188 828 riscv-013.c:412 scan():  ->  dmactive
Debug: 189 828 riscv-013.c:783 execute_abstract_command(): command=0x321008; access register, size=64, postexec=0, transfer=1, write=0, regno=0x1008
Debug: 190 836 riscv-013.c:402 scan(): 41b w 00321008 @17 -> + 00000000 @10; 4i
Debug: 191 844 riscv-013.c:402 scan(): 41b r 00000000 @16 -> + 00321008 @17; 4i
Debug: 192 851 riscv-013.c:402 scan(): 41b - 00000000 @16 -> + 08000202 @16; 4i
Debug: 193 851 riscv-013.c:412 scan():  ->  progbufsize=8 cmderr=2 datacount=2
Debug: 194 851 riscv-013.c:806 execute_abstract_command(): command 0x321008 failed; abstractcs=0x8000202
Debug: 195 859 riscv-013.c:402 scan(): 41b w 00000700 @16 -> + 00000000 @16; 4i
Debug: 196 859 riscv-013.c:412 scan():  cmderr=7 -> 
Debug: 197 865 riscv-013.c:402 scan(): 41b - 00000000 @16 -> + 00000700 @16; 4i
Debug: 198 865 riscv-013.c:412 scan():  ->  cmderr=7
Debug: 199 865 riscv-013.c:783 execute_abstract_command(): command=0x220301; access register, size=32, postexec=0, transfer=1, write=0, regno=0x301
Debug: 200 873 riscv-013.c:402 scan(): 41b w 00220301 @17 -> + 00000000 @16; 4i
Debug: 201 881 riscv-013.c:402 scan(): 41b r 00000000 @16 -> + 00220301 @17; 4i
Debug: 202 888 riscv-013.c:402 scan(): 41b - 00000000 @16 -> + 08000002 @16; 4i
Debug: 203 888 riscv-013.c:412 scan():  ->  progbufsize=8 datacount=2
Debug: 204 897 riscv-013.c:402 scan(): 41b r 00000000 @04 -> + 00000000 @16; 4i
Debug: 205 904 riscv-013.c:402 scan(): 41b - 00000000 @04 -> + 40101104 @04; 4i
Debug: 206 904 riscv-013.c:1496 register_read_direct(): {0} misa = 0x40101104
Debug: 207 904 riscv.c:4002 riscv_init_registers(): create register cache for 4194 registers
Debug: 208 905 riscv-013.c:1757 examine():  hart 0: XLEN=32, misa=0x40101104
Debug: 209 905 riscv-013.c:4793 riscv013_step_or_resume_current_hart(): resuming hart 0 (for step?=0)
Debug: 210 914 riscv-013.c:402 scan(): 41b r 00000000 @11 -> + 00000000 @04; 4i
Debug: 211 921 riscv-013.c:402 scan(): 41b - 00000000 @11 -> + 00000382 @11; 4i
Debug: 212 921 riscv-013.c:412 scan():  ->  allhalted anyhalted authenticated version=2
Debug: 213 929 riscv-013.c:402 scan(): 41b w 40000001 @10 -> + 00000000 @11; 4i
Debug: 214 929 riscv-013.c:412 scan():  resumereq dmactive -> 
Debug: 215 936 riscv-013.c:402 scan(): 41b - 00000000 @10 -> + 40000001 @10; 4i
Debug: 216 936 riscv-013.c:412 scan():  ->  resumereq dmactive
Debug: 217 944 riscv-013.c:402 scan(): 41b r 00000000 @11 -> + 00000000 @10; 4i
Debug: 218 951 riscv-013.c:402 scan(): 41b - 00000000 @11 -> + 00030c82 @11; 4i
Debug: 219 951 riscv-013.c:412 scan():  ->  allresumeack anyresumeack allrunning anyrunning authenticated version=2
Debug: 220 959 riscv-013.c:402 scan(): 41b w 00000001 @10 -> + 00000000 @11; 4i
Debug: 221 959 riscv-013.c:412 scan():  dmactive -> 
Debug: 222 966 riscv-013.c:402 scan(): 41b - 00000000 @10 -> + 00000001 @10; 4i
Debug: 223 966 riscv-013.c:412 scan():  ->  dmactive
Info : 224 966 riscv-013.c:1780 examine(): Examined RISC-V core; found 1 harts
Info : 225 966 riscv-013.c:1782 examine():  hart 0: XLEN=32, misa=0x40101104
Debug: 226 966 target.c:1800 target_call_event_callbacks(): target event 21 (examine-end) for core riscv.tap.0
Debug: 227 966 command.c:146 script_debug(): command - flash init
Debug: 229 966 riscv.c:2108 riscv_openocd_poll(): polling all harts
Debug: 230 966 riscv.c:3420 riscv_set_current_hartid(): setting hartid to 0, was 0
Debug: 231 966 riscv.c:2013 riscv_poll_hart(): polling hart 0, target->state=0
Debug: 232 974 riscv-013.c:402 scan(): 41b r 00000000 @11 -> + 00000000 @10; 4i
Debug: 233 981 riscv-013.c:402 scan(): 41b - 00000000 @11 -> + 00030c82 @11; 4i
Debug: 234 981 riscv-013.c:412 scan():  ->  allresumeack anyresumeack allrunning anyrunning authenticated version=2
Debug: 235 981 riscv.c:2023 riscv_poll_hart():   triggered running
Debug: 237 981 tcl.c:1386 handle_flash_init_command(): Initializing flash devices...
Debug: 238 981 command.c:146 script_debug(): command - nand init
Debug: 239 981 riscv.c:2108 riscv_openocd_poll(): polling all harts
Debug: 240 981 riscv.c:3420 riscv_set_current_hartid(): setting hartid to 0, was 0
Debug: 241 981 riscv.c:2013 riscv_poll_hart(): polling hart 0, target->state=1
Debug: 242 989 riscv-013.c:402 scan(): 41b r 00000000 @11 -> + 00000000 @11; 4i
Debug: 243 996 riscv-013.c:402 scan(): 41b - 00000000 @11 -> + 00030c82 @11; 4i
Debug: 244 996 riscv-013.c:412 scan():  ->  allresumeack anyresumeack allrunning anyrunning authenticated version=2
Debug: 246 996 tcl.c:498 handle_nand_init_command(): Initializing NAND devices...
Debug: 247 996 command.c:146 script_debug(): command - pld init
Debug: 248 996 riscv.c:2108 riscv_openocd_poll(): polling all harts
Debug: 249 996 riscv.c:3420 riscv_set_current_hartid(): setting hartid to 0, was 0
Debug: 250 996 riscv.c:2013 riscv_poll_hart(): polling hart 0, target->state=1
Debug: 251 1005 riscv-013.c:402 scan(): 41b r 00000000 @11 -> + 00000000 @11; 4i
Debug: 252 1012 riscv-013.c:402 scan(): 41b - 00000000 @11 -> + 00030c82 @11; 4i
Debug: 253 1012 riscv-013.c:412 scan():  ->  allresumeack anyresumeack allrunning anyrunning authenticated version=2
Debug: 255 1012 pld.c:206 handle_pld_init_command(): Initializing PLDs...
Info : 256 1012 gdb_server.c:3609 gdb_target_start(): starting gdb server for riscv.tap.0 on 3333
Info : 257 1012 server.c:312 add_service(): Listening on port 3333 for gdb connections
Debug: 258 1012 command.c:146 script_debug(): command - reset
Debug: 259 1012 riscv.c:2108 riscv_openocd_poll(): polling all harts
Debug: 260 1012 riscv.c:3420 riscv_set_current_hartid(): setting hartid to 0, was 0
Debug: 261 1012 riscv.c:2013 riscv_poll_hart(): polling hart 0, target->state=1
Debug: 262 1021 riscv-013.c:402 scan(): 41b r 00000000 @11 -> + 00000000 @11; 4i
Debug: 263 1027 riscv-013.c:402 scan(): 41b - 00000000 @11 -> + 00030c82 @11; 4i
Debug: 264 1027 riscv-013.c:412 scan():  ->  allresumeack anyresumeack allrunning anyrunning authenticated version=2
Debug: 266 1027 target.c:1819 target_call_reset_callbacks(): target reset 1 (run)
Debug: 267 1027 command.c:146 script_debug(): command - target names
Debug: 268 1027 command.c:146 script_debug(): command - riscv.tap.0 invoke-event reset-start
Debug: 269 1027 command.c:146 script_debug(): command - transport select
Debug: 270 1027 command.c:146 script_debug(): command - jtag arp_init-reset
Debug: 271 1027 core.c:1694 jtag_init_reset(): Initializing with hard TRST+SRST reset
Debug: 272 1027 core.c:843 jtag_add_reset(): JTAG reset with TLR instead of TRST
Debug: 273 1027 core.c:327 jtag_call_event_callbacks(): jtag event: TAP reset
Debug: 274 1027 core.c:1578 jtag_init_inner(): Init JTAG chain
Debug: 275 1027 core.c:327 jtag_call_event_callbacks(): jtag event: TAP reset
Debug: 276 1027 core.c:1243 jtag_examine_chain(): DR scan interrogation for IDCODE/BYPASS
Debug: 277 1027 core.c:327 jtag_call_event_callbacks(): jtag event: TAP reset
Info : 278 1440 core.c:1142 jtag_examine_chain_display(): JTAG tap: riscv.tap tap/device found: 0x04f5484d (mfg: 0x426 (Google Inc), part: 0x4f54, ver: 0x0)
Debug: 279 1440 core.c:1374 jtag_validate_ircapture(): IR capture validation scan
Debug: 280 1443 core.c:1431 jtag_validate_ircapture(): riscv.tap: IR capture 0x05
Debug: 281 1443 command.c:146 script_debug(): command - transport select
Debug: 282 1443 command.c:146 script_debug(): command - riscv.tap.0 cget -chain-position
Debug: 283 1443 command.c:146 script_debug(): command - jtag tapisenabled riscv.tap
Debug: 284 1443 command.c:146 script_debug(): command - riscv.tap.0 invoke-event examine-start
Debug: 285 1443 command.c:146 script_debug(): command - riscv.tap.0 arp_examine allow-defer
Debug: 286 1443 riscv.c:1061 riscv_examine(): riscv_examine()
Debug: 287 1443 riscv.c:1063 riscv_examine(): Target was already examined.
Debug: 288 1443 command.c:146 script_debug(): command - riscv.tap.0 invoke-event examine-end
Debug: 289 1443 command.c:146 script_debug(): command - riscv.tap.0 invoke-event reset-assert-pre
Debug: 290 1443 command.c:146 script_debug(): command - transport select
Debug: 291 1443 command.c:146 script_debug(): command - riscv.tap.0 cget -chain-position
Debug: 292 1443 command.c:146 script_debug(): command - jtag tapisenabled riscv.tap
Debug: 293 1443 command.c:146 script_debug(): command - riscv.tap.0 arp_reset assert 0
Debug: 294 1443 target.c:2154 target_free_all_working_areas_restore(): freeing all working areas
Debug: 295 1443 riscv.c:1214 riscv_assert_reset(): [0]
Debug: 296 1443 riscv.c:3431 riscv_invalidate_register_cache(): [0]
Debug: 297 1454 riscv-013.c:402 scan(): 41b w 00000003 @10 -> + 00000000 @11; 4i
Debug: 298 1454 riscv-013.c:412 scan():  ndmreset dmactive -> 
Debug: 299 1460 riscv-013.c:402 scan(): 41b - 00000000 @10 -> + 00000003 @10; 4i
Debug: 300 1460 riscv-013.c:412 scan():  ->  ndmreset dmactive
Debug: 301 1460 command.c:146 script_debug(): command - riscv.tap.0 invoke-event reset-assert-post
Debug: 302 1460 command.c:146 script_debug(): command - riscv.tap.0 invoke-event reset-deassert-pre
Debug: 303 1460 command.c:146 script_debug(): command - transport select
Debug: 304 1460 command.c:146 script_debug(): command - riscv.tap.0 cget -chain-position
Debug: 305 1460 command.c:146 script_debug(): command - jtag tapisenabled riscv.tap
Debug: 306 1460 command.c:146 script_debug(): command - riscv.tap.0 arp_reset deassert 0
Debug: 307 1460 target.c:2154 target_free_all_working_areas_restore(): freeing all working areas
Debug: 308 1460 riscv.c:1222 riscv_deassert_reset(): [0]
Debug: 309 1467 riscv-013.c:402 scan(): 41b w 00000001 @10 -> + 00000000 @10; 4i
Debug: 310 1467 riscv-013.c:412 scan():  dmactive -> 
Debug: 311 1476 riscv-013.c:402 scan(): 41b - 00000000 @10 -> + 00000001 @10; 4i
Debug: 312 1476 riscv-013.c:412 scan():  ->  dmactive
Debug: 313 1476 riscv-013.c:2421 deassert_reset(): Waiting for hart 0 to come out of reset.
Debug: 314 1486 riscv-013.c:402 scan(): 41b r 00000000 @11 -> + 00000000 @10; 4i
Debug: 315 1495 riscv-013.c:402 scan(): 41b - 00000000 @11 -> + 000f0c82 @11; 4i
Debug: 316 1496 riscv-013.c:412 scan():  ->  allhavereset anyhavereset allresumeack anyresumeack allrunning anyrunning authenticated version=2
Debug: 317 1505 riscv-013.c:402 scan(): 41b w 10000001 @10 -> + 00000000 @11; 4i
Debug: 318 1505 riscv-013.c:412 scan():  dmactive ackhavereset -> 
Debug: 319 1514 riscv-013.c:402 scan(): 41b - 00000000 @10 -> + 10000001 @10; 4i
Debug: 320 1514 riscv-013.c:412 scan():  ->  dmactive ackhavereset
Debug: 321 1514 command.c:146 script_debug(): command - riscv.tap.0 invoke-event reset-deassert-post
Debug: 322 1514 command.c:146 script_debug(): command - riscv.tap.0 invoke-event reset-end
Debug: 324 1514 riscv.c:2108 riscv_openocd_poll(): polling all harts
Debug: 325 1514 riscv.c:3420 riscv_set_current_hartid(): setting hartid to 0, was 0
Debug: 326 1514 riscv.c:2013 riscv_poll_hart(): polling hart 0, target->state=2
Debug: 327 1524 riscv-013.c:402 scan(): 41b r 00000000 @11 -> + 00000000 @10; 4i
Debug: 328 1533 riscv-013.c:402 scan(): 41b - 00000000 @11 -> + 00030c82 @11; 4i
Debug: 329 1533 riscv-013.c:412 scan():  ->  allresumeack anyresumeack allrunning anyrunning authenticated version=2
Debug: 330 1533 riscv.c:2023 riscv_poll_hart():   triggered running
Info : 331 1533 server.c:312 add_service(): Listening on port 6666 for tcl connections
Info : 332 1533 server.c:312 add_service(): Listening on port 4444 for telnet connections
Debug: 333 1533 command.c:146 script_debug(): command - init
Debug: 334 1533 riscv.c:2108 riscv_openocd_poll(): polling all harts
Debug: 335 1533 riscv.c:3420 riscv_set_current_hartid(): setting hartid to 0, was 0
Debug: 336 1533 riscv.c:2013 riscv_poll_hart(): polling hart 0, target->state=1
Debug: 337 1543 riscv-013.c:402 scan(): 41b r 00000000 @11 -> + 00000000 @11; 4i
Debug: 338 1552 riscv-013.c:402 scan(): 41b - 00000000 @11 -> + 00030c82 @11; 4i
