Open On-Chip Debugger 0.11.0-rc2+dev-01538-gd57ab0b63 (2021-03-04-12:24)
Licensed under GNU GPL v2
For bug reports, read
	http://openocd.org/doc/doxygen/bugs.html
User : 13 4 options.c:63 configuration_output_handler(): debug_level: 3
User : 14 4 options.c:63 configuration_output_handler(): 
Debug: 15 4 options.c:244 add_default_dirs(): bindir=/usr/local/bin
Debug: 16 4 options.c:245 add_default_dirs(): pkgdatadir=/usr/local/share/openocd
Debug: 17 4 options.c:246 add_default_dirs(): exepath=/usr/local/bin
Debug: 18 4 options.c:247 add_default_dirs(): bin2data=../share/openocd
Debug: 19 4 configuration.c:42 add_script_search_dir(): adding /home/usman/.config/openocd
Debug: 20 4 configuration.c:42 add_script_search_dir(): adding /home/usman/.openocd
Debug: 21 4 configuration.c:42 add_script_search_dir(): adding /usr/local/bin/../share/openocd/site
Debug: 22 4 configuration.c:42 add_script_search_dir(): adding /usr/local/bin/../share/openocd/scripts
Debug: 23 4 configuration.c:97 find_file(): found Documents/azadi/tools/azadi.cfg
Debug: 24 4 command.c:146 script_debug(): command - echo DEPRECATED! use 'adapter driver' not 'interface'
User : 26 4 command.c:769 jim_echo(): DEPRECATED! use 'adapter driver' not 'interface'
Debug: 27 4 command.c:146 script_debug(): command - adapter driver remote_bitbang
Info : 29 4 transport.c:117 allow_transports(): only one transport option; autoselect 'jtag'
Debug: 30 4 command.c:146 script_debug(): command - remote_bitbang_host localhost
Debug: 32 4 command.c:146 script_debug(): command - remote_bitbang_port 44853
Debug: 34 4 command.c:146 script_debug(): command - jtag newtap riscv tap -irlen 5 -expected-id 0x04f5484d
Debug: 35 4 tcl.c:571 jim_newtap_cmd(): Creating New Tap, Chip: riscv, Tap: tap, Dotted: riscv.tap, 4 params
Debug: 36 4 tcl.c:596 jim_newtap_cmd(): Processing option: -irlen
Debug: 37 4 tcl.c:596 jim_newtap_cmd(): Processing option: -expected-id
Debug: 38 4 core.c:1484 jtag_tap_init(): Created Tap: riscv.tap @ abs position 0, irlen 5, capture: 0x1 mask: 0x3
Debug: 39 4 command.c:146 script_debug(): command - target create riscv.tap.0 riscv -chain-position riscv.tap
Debug: 40 4 target.c:2174 target_free_all_working_areas_restore(): freeing all working areas
Debug: 41 5 riscv.c:428 riscv_create_target(): riscv_create_target()
Debug: 42 5 command.c:146 script_debug(): command - riscv set_prefer_sba on
Warn : 44 5 riscv.c:2302 riscv_set_prefer_sba(): `riscv set_prefer_sba` is deprecated. Please use `riscv set_mem_access` instead.
Debug: 45 5 command.c:146 script_debug(): command - gdb_report_data_abort enable
Debug: 47 5 command.c:146 script_debug(): command - gdb_report_register_access_error enable
Debug: 49 5 command.c:146 script_debug(): command - gdb_breakpoint_override hard
User : 51 5 gdb_server.c:3785 handle_gdb_breakpoint_override_command(): force hard breakpoints
Info : 52 5 server.c:312 add_service(): Listening on port 6666 for tcl connections
Info : 53 5 server.c:312 add_service(): Listening on port 4444 for telnet connections
Debug: 54 5 command.c:146 script_debug(): command - init
Debug: 56 5 command.c:146 script_debug(): command - target init
Debug: 58 5 command.c:146 script_debug(): command - target names
Debug: 59 5 command.c:146 script_debug(): command - riscv.tap.0 cget -event gdb-flash-erase-start
Debug: 60 5 command.c:146 script_debug(): command - riscv.tap.0 configure -event gdb-flash-erase-start reset init
Debug: 61 5 command.c:146 script_debug(): command - riscv.tap.0 cget -event gdb-flash-write-end
Debug: 62 5 command.c:146 script_debug(): command - riscv.tap.0 configure -event gdb-flash-write-end reset halt
Debug: 63 5 command.c:146 script_debug(): command - riscv.tap.0 cget -event gdb-attach
Debug: 64 5 command.c:146 script_debug(): command - riscv.tap.0 configure -event gdb-attach halt 1000
Debug: 65 5 target.c:1635 handle_target_init_command(): Initializing targets...
Debug: 66 5 riscv.c:439 riscv_init_target(): riscv_init_target()
Debug: 67 5 semihosting_common.c:99 semihosting_common_init():  
Info : 68 5 remote_bitbang.c:282 remote_bitbang_init(): Initializing remote_bitbang driver
Info : 69 5 remote_bitbang.c:211 remote_bitbang_init_tcp(): Connecting to localhost:44853
Info : 70 6 remote_bitbang.c:298 remote_bitbang_init(): remote_bitbang driver initialized
Info : 71 6 core.c:1536 adapter_init(): This adapter doesn't support configurable speed
Debug: 72 6 openocd.c:143 handle_init_command(): Debug Adapter init complete
Debug: 73 6 command.c:146 script_debug(): command - transport init
Debug: 75 6 transport.c:229 handle_transport_init(): handle_transport_init
Debug: 76 6 core.c:830 jtag_add_reset(): SRST line released
Debug: 77 6 core.c:855 jtag_add_reset(): TRST line released
Debug: 78 6 core.c:327 jtag_call_event_callbacks(): jtag event: TAP reset
Debug: 79 6 command.c:146 script_debug(): command - jtag arp_init
Debug: 80 6 core.c:1578 jtag_init_inner(): Init JTAG chain
Debug: 81 6 core.c:327 jtag_call_event_callbacks(): jtag event: TAP reset
Debug: 82 6 core.c:1243 jtag_examine_chain(): DR scan interrogation for IDCODE/BYPASS
Debug: 83 6 core.c:327 jtag_call_event_callbacks(): jtag event: TAP reset
Info : 84 91 core.c:1142 jtag_examine_chain_display(): JTAG tap: riscv.tap tap/device found: 0x04f5484d (mfg: 0x426 (Google Inc), part: 0x4f54, ver: 0x0)
Debug: 85 91 core.c:1374 jtag_validate_ircapture(): IR capture validation scan
Debug: 86 93 core.c:1431 jtag_validate_ircapture(): riscv.tap: IR capture 0x05
Debug: 87 93 command.c:146 script_debug(): command - dap init
Debug: 89 93 arm_dap.c:106 dap_init_all(): Initializing all DAPs ...
Debug: 90 93 openocd.c:160 handle_init_command(): Examining targets...
Debug: 91 93 target.c:1820 target_call_event_callbacks(): target event 19 (examine-start) for core riscv.tap.0
Debug: 92 93 riscv.c:1061 riscv_examine(): riscv_examine()
Debug: 93 98 riscv.c:401 dtmcontrol_scan(): DTMCONTROL: 0x0 -> 0x1071
Debug: 94 98 riscv.c:1071 riscv_examine(): dtmcontrol=0x1071
Debug: 95 98 riscv.c:1073 riscv_examine():   version=0x1
Debug: 96 99 riscv-013.c:2282 init_target(): init
Debug: 97 104 riscv-013.c:456 dtmcontrol_scan(): DTMCS: 0x0 -> 0x1071
Debug: 98 104 riscv-013.c:1574 examine(): dtmcontrol=0x1071
Debug: 99 104 riscv-013.c:1575 examine():   dmireset=0
Debug: 100 104 riscv-013.c:1576 examine():   idle=1
Debug: 101 104 riscv-013.c:1577 examine():   dmistat=0
Debug: 102 104 riscv-013.c:1578 examine():   abits=7
Debug: 103 104 riscv-013.c:1579 examine():   version=1
Debug: 104 104 riscv-013.c:262 get_dm(): [0] Allocating new DM
Debug: 105 111 riscv-013.c:402 scan(): 41b w 00000000 @10 -> + 00000000 @10; 0i
Debug: 106 116 riscv-013.c:402 scan(): 41b - 00000000 @10 -> + 00000000 @10; 0i
Debug: 107 122 riscv-013.c:402 scan(): 41b w 00000001 @10 -> + 00000000 @10; 0i
Debug: 108 122 riscv-013.c:412 scan():  dmactive -> 
Debug: 109 127 riscv-013.c:402 scan(): 41b - 00000000 @10 -> + 00000001 @10; 0i
Debug: 110 127 riscv-013.c:412 scan():  ->  dmactive
Debug: 111 133 riscv-013.c:402 scan(): 41b w 07ffffc1 @10 -> + 00000000 @10; 0i
Debug: 112 133 riscv-013.c:412 scan():  hasel hartselhi=1023 hartsello=1023 dmactive -> 
Debug: 113 139 riscv-013.c:402 scan(): 41b - 00000000 @10 -> + 07ffffc1 @10; 0i
Debug: 114 139 riscv-013.c:412 scan():  ->  hasel hartselhi=1023 hartsello=1023 dmactive
Debug: 115 145 riscv-013.c:402 scan(): 41b r 00000000 @10 -> + 00000000 @10; 0i
Debug: 116 150 riscv-013.c:402 scan(): 41b - 00000000 @10 -> b 00000000 @10; 0i
Debug: 117 150 riscv-013.c:465 increase_dmi_busy_delay(): dtmcs_idle=1, dmi_busy_delay=1, ac_busy_delay=0
Debug: 118 155 riscv-013.c:456 dtmcontrol_scan(): DTMCS: 0x10000 -> 0x1c71
Debug: 119 160 riscv-013.c:402 scan(): 41b - 00000000 @10 -> + 03ffffc1 @10; 1i
Debug: 120 160 riscv-013.c:412 scan():  ->  hartselhi=1023 hartsello=1023 dmactive
Debug: 121 166 riscv-013.c:402 scan(): 41b r 00000000 @11 -> + 00000000 @10; 1i
Debug: 122 171 riscv-013.c:402 scan(): 41b - 00000000 @11 -> b 00000000 @11; 1i
Debug: 123 171 riscv-013.c:465 increase_dmi_busy_delay(): dtmcs_idle=1, dmi_busy_delay=2, ac_busy_delay=0
Debug: 124 176 riscv-013.c:456 dtmcontrol_scan(): DTMCS: 0x10000 -> 0x1071
Debug: 125 182 riscv-013.c:402 scan(): 41b - 00000000 @11 -> + 0000cc82 @11; 2i
Debug: 126 182 riscv-013.c:412 scan():  ->  allnonexistent anynonexistent allrunning anyrunning authenticated version=2
Debug: 127 182 riscv-013.c:1624 examine(): dmstatus:  0x0000cc82
Debug: 128 182 riscv-013.c:1640 examine(): hartsellen=20
Debug: 129 188 riscv-013.c:402 scan(): 41b r 00000000 @12 -> + 00000000 @11; 2i
Debug: 130 194 riscv-013.c:402 scan(): 41b - 00000000 @12 -> b 00000000 @12; 2i
Debug: 131 194 riscv-013.c:465 increase_dmi_busy_delay(): dtmcs_idle=1, dmi_busy_delay=3, ac_busy_delay=0
Debug: 132 198 riscv-013.c:456 dtmcontrol_scan(): DTMCS: 0x10000 -> 0x1071
Debug: 133 204 riscv-013.c:402 scan(): 41b - 00000000 @12 -> + 00000000 @12; 3i
Debug: 134 210 riscv-013.c:402 scan(): 41b r 00000000 @38 -> + 00000000 @12; 3i
Debug: 135 216 riscv-013.c:402 scan(): 41b - 00000000 @38 -> b 00000000 @38; 3i
Debug: 136 216 riscv-013.c:465 increase_dmi_busy_delay(): dtmcs_idle=1, dmi_busy_delay=4, ac_busy_delay=0
Debug: 137 221 riscv-013.c:456 dtmcontrol_scan(): DTMCS: 0x10000 -> 0x1071
Debug: 138 226 riscv-013.c:402 scan(): 41b - 00000000 @38 -> + 20040404 @38; 4i
Debug: 139 227 riscv-013.c:412 scan():  ->  sbversion=1 sbaccess=2 sbasize=32 sbaccess32
Debug: 140 233 riscv-013.c:402 scan(): 41b r 00000000 @16 -> + 00000000 @38; 4i
Debug: 141 238 riscv-013.c:402 scan(): 41b - 00000000 @16 -> + 08000002 @16; 4i
Debug: 142 238 riscv-013.c:412 scan():  ->  progbufsize=8 datacount=2
Info : 143 238 riscv-013.c:1671 examine(): datacount=2 progbufsize=8
Debug: 144 244 riscv-013.c:402 scan(): 41b r 00000000 @10 -> + 00000000 @16; 4i
Debug: 145 250 riscv-013.c:402 scan(): 41b - 00000000 @10 -> + 03ffffc1 @10; 4i
Debug: 146 250 riscv-013.c:412 scan():  ->  hartselhi=1023 hartsello=1023 dmactive
Debug: 147 256 riscv-013.c:402 scan(): 41b w 00000001 @10 -> + 00000000 @10; 4i
Debug: 148 256 riscv-013.c:412 scan():  dmactive -> 
Debug: 149 261 riscv-013.c:402 scan(): 41b - 00000000 @10 -> + 00000001 @10; 4i
Debug: 150 261 riscv-013.c:412 scan():  ->  dmactive
Debug: 151 267 riscv-013.c:402 scan(): 41b r 00000000 @11 -> + 00000000 @10; 4i
Debug: 152 272 riscv-013.c:402 scan(): 41b - 00000000 @11 -> + 00000c82 @11; 4i
Debug: 153 272 riscv-013.c:412 scan():  ->  allrunning anyrunning authenticated version=2
Debug: 154 278 riscv-013.c:402 scan(): 41b r 00000000 @10 -> + 00000000 @11; 4i
Debug: 155 284 riscv-013.c:402 scan(): 41b - 00000000 @10 -> + 00000001 @10; 4i
Debug: 156 284 riscv-013.c:412 scan():  ->  dmactive
Debug: 157 290 riscv-013.c:402 scan(): 41b w 00010001 @10 -> + 00000000 @10; 4i
Debug: 158 290 riscv-013.c:412 scan():  hartsello=1 dmactive -> 
Debug: 159 296 riscv-013.c:402 scan(): 41b - 00000000 @10 -> + 00010001 @10; 4i
Debug: 160 296 riscv-013.c:412 scan():  ->  hartsello=1 dmactive
Debug: 161 302 riscv-013.c:402 scan(): 41b r 00000000 @11 -> + 00000000 @10; 4i
Debug: 162 310 riscv-013.c:402 scan(): 41b - 00000000 @11 -> + 0000cc82 @11; 4i
Debug: 163 310 riscv-013.c:412 scan():  ->  allnonexistent anynonexistent allrunning anyrunning authenticated version=2
Debug: 164 310 riscv-013.c:1709 examine(): Detected 1 harts.
Debug: 165 316 riscv-013.c:402 scan(): 41b r 00000000 @10 -> + 00000000 @11; 4i
Debug: 166 321 riscv-013.c:402 scan(): 41b - 00000000 @10 -> + 00010001 @10; 4i
Debug: 167 321 riscv-013.c:412 scan():  ->  hartsello=1 dmactive
Debug: 168 328 riscv-013.c:402 scan(): 41b w 00000001 @10 -> + 00000000 @10; 4i
Debug: 169 328 riscv-013.c:412 scan():  dmactive -> 
Debug: 170 333 riscv-013.c:402 scan(): 41b - 00000000 @10 -> + 00000001 @10; 4i
Debug: 171 333 riscv-013.c:412 scan():  ->  dmactive
Debug: 172 339 riscv-013.c:402 scan(): 41b r 00000000 @11 -> + 00000000 @10; 4i
Debug: 173 344 riscv-013.c:402 scan(): 41b - 00000000 @11 -> + 00000c82 @11; 4i
Debug: 174 344 riscv-013.c:412 scan():  ->  allrunning anyrunning authenticated version=2
Debug: 175 344 riscv-013.c:4218 riscv013_halt_go(): halting hart 0
Debug: 176 350 riscv-013.c:402 scan(): 41b w 80000001 @10 -> + 00000000 @11; 4i
Debug: 177 350 riscv-013.c:412 scan(): haltreq dmactive -> 
Debug: 178 362 riscv-013.c:402 scan(): 41b - 00000000 @10 -> + 80000001 @10; 4i
Debug: 179 362 riscv-013.c:412 scan():  -> haltreq dmactive
Debug: 180 368 riscv-013.c:402 scan(): 41b r 00000000 @11 -> + 00000000 @10; 4i
Debug: 181 374 riscv-013.c:402 scan(): 41b - 00000000 @11 -> + 00000c82 @11; 4i
Debug: 182 374 riscv-013.c:412 scan():  ->  allrunning anyrunning authenticated version=2
Debug: 183 380 riscv-013.c:402 scan(): 41b r 00000000 @11 -> + 00000000 @11; 4i
Debug: 184 385 riscv-013.c:402 scan(): 41b - 00000000 @11 -> + 00000c82 @11; 4i
Debug: 185 385 riscv-013.c:412 scan():  ->  allrunning anyrunning authenticated version=2
Debug: 186 391 riscv-013.c:402 scan(): 41b r 00000000 @11 -> + 00000000 @11; 4i
Debug: 187 397 riscv-013.c:402 scan(): 41b - 00000000 @11 -> + 00000c82 @11; 4i
Debug: 188 397 riscv-013.c:412 scan():  ->  allrunning anyrunning authenticated version=2
Debug: 189 403 riscv-013.c:402 scan(): 41b r 00000000 @11 -> + 00000000 @11; 4i
Debug: 190 408 riscv-013.c:402 scan(): 41b - 00000000 @11 -> + 00000c82 @11; 4i
Debug: 191 408 riscv-013.c:412 scan():  ->  allrunning anyrunning authenticated version=2
Debug: 192 414 riscv-013.c:402 scan(): 41b r 00000000 @11 -> + 00000000 @11; 4i
Debug: 193 420 riscv-013.c:402 scan(): 41b - 00000000 @11 -> + 00000c82 @11; 4i
Debug: 194 420 riscv-013.c:412 scan():  ->  allrunning anyrunning authenticated version=2
Debug: 195 426 riscv-013.c:402 scan(): 41b r 00000000 @11 -> + 00000000 @11; 4i
Debug: 196 431 riscv-013.c:402 scan(): 41b - 00000000 @11 -> + 00000c82 @11; 4i
Debug: 197 431 riscv-013.c:412 scan():  ->  allrunning anyrunning authenticated version=2
Debug: 198 438 riscv-013.c:402 scan(): 41b r 00000000 @11 -> + 00000000 @11; 4i
Debug: 199 443 riscv-013.c:402 scan(): 41b - 00000000 @11 -> + 00000c82 @11; 4i
Debug: 200 443 riscv-013.c:412 scan():  ->  allrunning anyrunning authenticated version=2
Debug: 201 449 riscv-013.c:402 scan(): 41b r 00000000 @11 -> + 00000000 @11; 4i
Debug: 202 454 riscv-013.c:402 scan(): 41b - 00000000 @11 -> + 00000c82 @11; 4i
Debug: 203 454 riscv-013.c:412 scan():  ->  allrunning anyrunning authenticated version=2
Debug: 204 461 riscv-013.c:402 scan(): 41b r 00000000 @11 -> + 00000000 @11; 4i
Debug: 205 466 riscv-013.c:402 scan(): 41b - 00000000 @11 -> + 00000c82 @11; 4i
Debug: 206 466 riscv-013.c:412 scan():  ->  allrunning anyrunning authenticated version=2
Debug: 207 472 riscv-013.c:402 scan(): 41b r 00000000 @11 -> + 00000000 @11; 4i
Debug: 208 478 riscv-013.c:402 scan(): 41b - 00000000 @11 -> + 00000c82 @11; 4i
Debug: 209 478 riscv-013.c:412 scan():  ->  allrunning anyrunning authenticated version=2
Debug: 210 484 riscv-013.c:402 scan(): 41b r 00000000 @11 -> + 00000000 @11; 4i
Debug: 211 490 riscv-013.c:402 scan(): 41b - 00000000 @11 -> + 00000c82 @11; 4i
Debug: 212 490 riscv-013.c:412 scan():  ->  allrunning anyrunning authenticated version=2
Debug: 213 496 riscv-013.c:402 scan(): 41b r 00000000 @11 -> + 00000000 @11; 4i
Debug: 214 501 riscv-013.c:402 scan(): 41b - 00000000 @11 -> + 00000c82 @11; 4i
Debug: 215 501 riscv-013.c:412 scan():  ->  allrunning anyrunning authenticated version=2
Debug: 216 507 riscv-013.c:402 scan(): 41b r 00000000 @11 -> + 00000000 @11; 4i
Debug: 217 513 riscv-013.c:402 scan(): 41b - 00000000 @11 -> + 00000c82 @11; 4i
Debug: 218 513 riscv-013.c:412 scan():  ->  allrunning anyrunning authenticated version=2
Debug: 219 519 riscv-013.c:402 scan(): 41b r 00000000 @11 -> + 00000000 @11; 4i
Debug: 220 524 riscv-013.c:402 scan(): 41b - 00000000 @11 -> + 00000c82 @11; 4i
Debug: 221 524 riscv-013.c:412 scan():  ->  allrunning anyrunning authenticated version=2
Debug: 222 530 riscv-013.c:402 scan(): 41b r 00000000 @11 -> + 00000000 @11; 4i
Debug: 223 535 riscv-013.c:402 scan(): 41b - 00000000 @11 -> + 00000c82 @11; 4i
Debug: 224 535 riscv-013.c:412 scan():  ->  allrunning anyrunning authenticated version=2
Debug: 225 542 riscv-013.c:402 scan(): 41b r 00000000 @11 -> + 00000000 @11; 4i
Debug: 226 547 riscv-013.c:402 scan(): 41b - 00000000 @11 -> + 00000c82 @11; 4i
Debug: 227 547 riscv-013.c:412 scan():  ->  allrunning anyrunning authenticated version=2
Debug: 228 553 riscv-013.c:402 scan(): 41b r 00000000 @11 -> + 00000000 @11; 4i
Debug: 229 558 riscv-013.c:402 scan(): 41b - 00000000 @11 -> + 00000c82 @11; 4i
Debug: 230 558 riscv-013.c:412 scan():  ->  allrunning anyrunning authenticated version=2
Debug: 231 564 riscv-013.c:402 scan(): 41b r 00000000 @11 -> + 00000000 @11; 4i
Debug: 232 569 riscv-013.c:402 scan(): 41b - 00000000 @11 -> + 00000c82 @11; 4i
Debug: 233 569 riscv-013.c:412 scan():  ->  allrunning anyrunning authenticated version=2
Debug: 234 576 riscv-013.c:402 scan(): 41b r 00000000 @11 -> + 00000000 @11; 4i
Debug: 235 581 riscv-013.c:402 scan(): 41b - 00000000 @11 -> + 00000c82 @11; 4i
Debug: 236 581 riscv-013.c:412 scan():  ->  allrunning anyrunning authenticated version=2
Debug: 237 587 riscv-013.c:402 scan(): 41b r 00000000 @11 -> + 00000000 @11; 4i
Debug: 238 592 riscv-013.c:402 scan(): 41b - 00000000 @11 -> + 00000c82 @11; 4i
Debug: 239 592 riscv-013.c:412 scan():  ->  allrunning anyrunning authenticated version=2
Debug: 240 598 riscv-013.c:402 scan(): 41b r 00000000 @11 -> + 00000000 @11; 4i
Debug: 241 604 riscv-013.c:402 scan(): 41b - 00000000 @11 -> + 00000c82 @11; 4i
Debug: 242 604 riscv-013.c:412 scan():  ->  allrunning anyrunning authenticated version=2
Debug: 243 610 riscv-013.c:402 scan(): 41b r 00000000 @11 -> + 00000000 @11; 4i
Debug: 244 615 riscv-013.c:402 scan(): 41b - 00000000 @11 -> + 00000c82 @11; 4i
Debug: 245 615 riscv-013.c:412 scan():  ->  allrunning anyrunning authenticated version=2
Debug: 246 621 riscv-013.c:402 scan(): 41b r 00000000 @11 -> + 00000000 @11; 4i
Debug: 247 627 riscv-013.c:402 scan(): 41b - 00000000 @11 -> + 00000c82 @11; 4i
Debug: 248 627 riscv-013.c:412 scan():  ->  allrunning anyrunning authenticated version=2
Debug: 249 633 riscv-013.c:402 scan(): 41b r 00000000 @11 -> + 00000000 @11; 4i
Debug: 250 638 riscv-013.c:402 scan(): 41b - 00000000 @11 -> + 00000c82 @11; 4i
Debug: 251 638 riscv-013.c:412 scan():  ->  allrunning anyrunning authenticated version=2
Debug: 252 644 riscv-013.c:402 scan(): 41b r 00000000 @11 -> + 00000000 @11; 4i
Debug: 253 649 riscv-013.c:402 scan(): 41b - 00000000 @11 -> + 00000c82 @11; 4i
Debug: 254 649 riscv-013.c:412 scan():  ->  allrunning anyrunning authenticated version=2
Debug: 255 655 riscv-013.c:402 scan(): 41b r 00000000 @11 -> + 00000000 @11; 4i
Debug: 256 661 riscv-013.c:402 scan(): 41b - 00000000 @11 -> + 00000c82 @11; 4i
Debug: 257 661 riscv-013.c:412 scan():  ->  allrunning anyrunning authenticated version=2
Debug: 258 667 riscv-013.c:402 scan(): 41b r 00000000 @11 -> + 00000000 @11; 4i
Debug: 259 672 riscv-013.c:402 scan(): 41b - 00000000 @11 -> + 00000c82 @11; 4i
Debug: 260 672 riscv-013.c:412 scan():  ->  allrunning anyrunning authenticated version=2
Debug: 261 678 riscv-013.c:402 scan(): 41b r 00000000 @11 -> + 00000000 @11; 4i
Debug: 262 683 riscv-013.c:402 scan(): 41b - 00000000 @11 -> + 00000c82 @11; 4i
Debug: 263 683 riscv-013.c:412 scan():  ->  allrunning anyrunning authenticated version=2
Debug: 264 689 riscv-013.c:402 scan(): 41b r 00000000 @11 -> + 00000000 @11; 4i
Debug: 265 695 riscv-013.c:402 scan(): 41b - 00000000 @11 -> + 00000c82 @11; 4i
Debug: 266 695 riscv-013.c:412 scan():  ->  allrunning anyrunning authenticated version=2
Debug: 267 701 riscv-013.c:402 scan(): 41b r 00000000 @11 -> + 00000000 @11; 4i
Debug: 268 706 riscv-013.c:402 scan(): 41b - 00000000 @11 -> + 00000c82 @11; 4i
Debug: 269 706 riscv-013.c:412 scan():  ->  allrunning anyrunning authenticated version=2
Debug: 270 712 riscv-013.c:402 scan(): 41b r 00000000 @11 -> + 00000000 @11; 4i
Debug: 271 718 riscv-013.c:402 scan(): 41b - 00000000 @11 -> + 00000c82 @11; 4i
Debug: 272 718 riscv-013.c:412 scan():  ->  allrunning anyrunning authenticated version=2
Debug: 273 724 riscv-013.c:402 scan(): 41b r 00000000 @11 -> + 00000000 @11; 4i
Debug: 274 729 riscv-013.c:402 scan(): 41b - 00000000 @11 -> + 00000c82 @11; 4i
Debug: 275 729 riscv-013.c:412 scan():  ->  allrunning anyrunning authenticated version=2
Debug: 276 735 riscv-013.c:402 scan(): 41b r 00000000 @11 -> + 00000000 @11; 4i
Debug: 277 740 riscv-013.c:402 scan(): 41b - 00000000 @11 -> + 00000c82 @11; 4i
Debug: 278 740 riscv-013.c:412 scan():  ->  allrunning anyrunning authenticated version=2
Debug: 279 747 riscv-013.c:402 scan(): 41b r 00000000 @11 -> + 00000000 @11; 4i
Debug: 280 752 riscv-013.c:402 scan(): 41b - 00000000 @11 -> + 00000c82 @11; 4i
Debug: 281 752 riscv-013.c:412 scan():  ->  allrunning anyrunning authenticated version=2
Debug: 282 758 riscv-013.c:402 scan(): 41b r 00000000 @11 -> + 00000000 @11; 4i
Debug: 283 763 riscv-013.c:402 scan(): 41b - 00000000 @11 -> + 00000c82 @11; 4i
Debug: 284 763 riscv-013.c:412 scan():  ->  allrunning anyrunning authenticated version=2
Debug: 285 770 riscv-013.c:402 scan(): 41b r 00000000 @11 -> + 00000000 @11; 4i
Debug: 286 775 riscv-013.c:402 scan(): 41b - 00000000 @11 -> + 00000c82 @11; 4i
Debug: 287 775 riscv-013.c:412 scan():  ->  allrunning anyrunning authenticated version=2
Debug: 288 782 riscv-013.c:402 scan(): 41b r 00000000 @11 -> + 00000000 @11; 4i
Debug: 289 787 riscv-013.c:402 scan(): 41b - 00000000 @11 -> + 00000c82 @11; 4i
Debug: 290 787 riscv-013.c:412 scan():  ->  allrunning anyrunning authenticated version=2
Debug: 291 793 riscv-013.c:402 scan(): 41b r 00000000 @11 -> + 00000000 @11; 4i
Debug: 292 798 riscv-013.c:402 scan(): 41b - 00000000 @11 -> + 00000c82 @11; 4i
Debug: 293 798 riscv-013.c:412 scan():  ->  allrunning anyrunning authenticated version=2
Debug: 294 805 riscv-013.c:402 scan(): 41b r 00000000 @11 -> + 00000000 @11; 4i
Debug: 295 810 riscv-013.c:402 scan(): 41b - 00000000 @11 -> + 00000c82 @11; 4i
Debug: 296 810 riscv-013.c:412 scan():  ->  allrunning anyrunning authenticated version=2
Debug: 297 816 riscv-013.c:402 scan(): 41b r 00000000 @11 -> + 00000000 @11; 4i
Debug: 298 821 riscv-013.c:402 scan(): 41b - 00000000 @11 -> + 00000c82 @11; 4i
Debug: 299 821 riscv-013.c:412 scan():  ->  allrunning anyrunning authenticated version=2
Debug: 300 827 riscv-013.c:402 scan(): 41b r 00000000 @11 -> + 00000000 @11; 4i
Debug: 301 833 riscv-013.c:402 scan(): 41b - 00000000 @11 -> + 00000c82 @11; 4i
Debug: 302 833 riscv-013.c:412 scan():  ->  allrunning anyrunning authenticated version=2
Debug: 303 839 riscv-013.c:402 scan(): 41b r 00000000 @11 -> + 00000000 @11; 4i
Debug: 304 844 riscv-013.c:402 scan(): 41b - 00000000 @11 -> + 00000c82 @11; 4i
Debug: 305 844 riscv-013.c:412 scan():  ->  allrunning anyrunning authenticated version=2
Debug: 306 850 riscv-013.c:402 scan(): 41b r 00000000 @11 -> + 00000000 @11; 4i
Debug: 307 856 riscv-013.c:402 scan(): 41b - 00000000 @11 -> + 00000c82 @11; 4i
Debug: 308 856 riscv-013.c:412 scan():  ->  allrunning anyrunning authenticated version=2
Debug: 309 862 riscv-013.c:402 scan(): 41b r 00000000 @11 -> + 00000000 @11; 4i
Debug: 310 873 riscv-013.c:402 scan(): 41b - 00000000 @11 -> + 00000c82 @11; 4i
Debug: 311 873 riscv-013.c:412 scan():  ->  allrunning anyrunning authenticated version=2
Debug: 312 880 riscv-013.c:402 scan(): 41b r 00000000 @11 -> + 00000000 @11; 4i
Debug: 313 885 riscv-013.c:402 scan(): 41b - 00000000 @11 -> + 00000c82 @11; 4i
Debug: 314 885 riscv-013.c:412 scan():  ->  allrunning anyrunning authenticated version=2
Debug: 315 891 riscv-013.c:402 scan(): 41b r 00000000 @11 -> + 00000000 @11; 4i
Debug: 316 897 riscv-013.c:402 scan(): 41b - 00000000 @11 -> + 00000c82 @11; 4i
Debug: 317 897 riscv-013.c:412 scan():  ->  allrunning anyrunning authenticated version=2
Debug: 318 903 riscv-013.c:402 scan(): 41b r 00000000 @11 -> + 00000000 @11; 4i
Debug: 319 908 riscv-013.c:402 scan(): 41b - 00000000 @11 -> + 00000c82 @11; 4i
Debug: 320 908 riscv-013.c:412 scan():  ->  allrunning anyrunning authenticated version=2
Debug: 321 915 riscv-013.c:402 scan(): 41b r 00000000 @11 -> + 00000000 @11; 4i
Debug: 322 927 riscv-013.c:402 scan(): 41b - 00000000 @11 -> + 00000c82 @11; 4i
Debug: 323 935 riscv-013.c:412 scan():  ->  allrunning anyrunning authenticated version=2
Debug: 324 941 riscv-013.c:402 scan(): 41b r 00000000 @11 -> + 00000000 @11; 4i
Debug: 325 947 riscv-013.c:402 scan(): 41b - 00000000 @11 -> + 00000c82 @11; 4i
Debug: 326 947 riscv-013.c:412 scan():  ->  allrunning anyrunning authenticated version=2
Debug: 327 953 riscv-013.c:402 scan(): 41b r 00000000 @11 -> + 00000000 @11; 4i
Debug: 328 958 riscv-013.c:402 scan(): 41b - 00000000 @11 -> + 00000c82 @11; 4i
Debug: 329 958 riscv-013.c:412 scan():  ->  allrunning anyrunning authenticated version=2
Debug: 330 964 riscv-013.c:402 scan(): 41b r 00000000 @11 -> + 00000000 @11; 4i
